                             .options savecurrents
                             AC Analysis  Sun May 23 00:06:06  2021
--------------------------------------------------------------------------------
Index   frequency       (v(coll)-v(emit))               
--------------------------------------------------------------------------------
0	1.000000e+01	-6.40925e-02,	-1.41788e-01	
1	1.258925e+01	-9.52884e-02,	-1.64093e-01	
2	1.584893e+01	-1.37375e-01,	-1.81826e-01	
3	1.995262e+01	-1.90000e-01,	-1.89149e-01	
4	2.511886e+01	-2.49333e-01,	-1.79616e-01	
5	3.162278e+01	-3.07530e-01,	-1.48667e-01	
6	3.981072e+01	-3.54294e-01,	-9.63024e-02	
7	5.011872e+01	-3.80100e-01,	-2.80917e-02	
8	6.309573e+01	-3.79292e-01,	4.613491e-02	
9	7.943282e+01	-3.51715e-01,	1.149515e-01	
10	1.000000e+02	-3.02794e-01,	1.683374e-01	
11	1.258925e+02	-2.42011e-01,	2.004422e-01	
12	1.584893e+02	-1.79838e-01,	2.110648e-01	
13	1.995262e+02	-1.24378e-01,	2.047762e-01	
14	2.511886e+02	-7.96409e-02,	1.882387e-01	
15	3.162278e+02	-4.59785e-02,	1.676001e-01	
16	3.981072e+02	-2.16114e-02,	1.472073e-01	
17	5.011872e+02	-4.02204e-03,	1.295330e-01	
18	6.309573e+02	9.252200e-03,	1.156361e-01	
19	7.943282e+02	2.032380e-02,	1.056414e-01	
20	1.000000e+03	3.089523e-02,	9.904538e-02	
21	1.258925e+03	4.222091e-02,	9.486491e-02	
22	1.584893e+03	5.498385e-02,	9.175470e-02	
23	1.995262e+03	6.912716e-02,	8.825192e-02	
24	2.511886e+03	8.383544e-02,	8.320145e-02	
25	3.162278e+03	9.785152e-02,	7.616893e-02	
26	3.981072e+03	1.100284e-01,	6.752290e-02	
27	5.011872e+03	1.197515e-01,	5.811338e-02	
28	6.309573e+03	1.269963e-01,	4.882237e-02	
29	7.943282e+03	1.321191e-01,	4.027992e-02	
30	1.000000e+04	1.356084e-01,	3.280655e-02	
31	1.258925e+04	1.379246e-01,	2.648377e-02	
32	1.584893e+04	1.394357e-01,	2.125113e-02	
33	1.995262e+04	1.404102e-01,	1.698198e-02	
34	2.511886e+04	1.410338e-01,	1.353015e-02	
35	3.162278e+04	1.414309e-01,	1.075429e-02	
36	3.981072e+04	1.416829e-01,	8.528477e-03	
37	5.011872e+04	1.418425e-01,	6.745380e-03	
38	6.309573e+04	1.419434e-01,	5.315722e-03	
39	7.943282e+04	1.420071e-01,	4.166239e-03	
40	1.000000e+05	1.420472e-01,	3.237163e-03	
41	1.258925e+05	1.420725e-01,	2.479745e-03	
42	1.584893e+05	1.420882e-01,	1.854016e-03	
43	1.995262e+05	1.420979e-01,	1.326836e-03	
44	2.511886e+05	1.421036e-01,	8.702241e-04	
45	3.162278e+05	1.421065e-01,	4.599121e-04	
46	3.981072e+05	1.421072e-01,	7.407595e-05	
47	5.011872e+05	1.421059e-01,	-3.07813e-04	
48	6.309573e+05	1.421023e-01,	-7.06072e-04	
49	7.943282e+05	1.420956e-01,	-1.14188e-03	
50	1.000000e+06	1.420845e-01,	-1.63838e-03	
51	1.258925e+06	1.420664e-01,	-2.22192e-03	
52	1.584893e+06	1.420375e-01,	-2.92333e-03	
53	1.995262e+06	1.419916e-01,	-3.77954e-03	
54	2.511886e+06	1.419189e-01,	-4.83526e-03	

Index   frequency       (v(coll)-v(emit))               
--------------------------------------------------------------------------------
55	3.162278e+06	1.418037e-01,	-6.14497e-03	
56	3.981072e+06	1.416216e-01,	-7.77493e-03	
57	5.011872e+06	1.413340e-01,	-9.80506e-03	
58	6.309573e+06	1.408811e-01,	-1.23299e-02	
59	7.943282e+06	1.401700e-01,	-1.54572e-02	
60	1.000000e+07	1.390602e-01,	-1.93016e-02	
61	1.258925e+07	1.373426e-01,	-2.39687e-02	
62	1.584893e+07	1.347200e-01,	-2.95212e-02	
63	1.995262e+07	1.307960e-01,	-3.59204e-02	
64	2.511886e+07	1.250995e-01,	-4.29366e-02	
65	3.162278e+07	1.171827e-01,	-5.00508e-02	
66	3.981072e+07	1.068203e-01,	-5.64125e-02	
67	5.011872e+07	9.426848e-02,	-6.09664e-02	
68	6.309573e+07	8.040993e-02,	-6.28059e-02	
69	7.943282e+07	6.657258e-02,	-6.16062e-02	
70	1.000000e+08	5.404189e-02,	-5.78058e-02	
